T5EF0 000:050.734   SEGGER J-Link V7.96i Log File
T5EF0 000:050.879   DLL Compiled: May 22 2024 16:10:08
T5EF0 000:050.884   Logging started @ 2026-01-06 13:38
T5EF0 000:050.888   Process: F:\Keil_v5\UV4\UV4.exe
T5EF0 000:050.895 - 50.891ms
T5EF0 000:050.903 JLINK_SetWarnOutHandler(...)
T5EF0 000:050.907 - 0.006ms
T5EF0 000:050.912 JLINK_OpenEx(...)
T5EF0 000:053.358   Firmware: J-Link ARM-OB STM32 compiled Aug 22 2012 19:52:04
T5EF0 000:054.632   Firmware: J-Link ARM-OB STM32 compiled Aug 22 2012 19:52:04
T5EF0 000:056.876   Hardware: V7.00
T5EF0 000:056.889   S/N: 4294967295
T5EF0 000:056.895   OEM: SEGGER
T5EF0 000:056.901   Feature(s): RDI,FlashDL,FlashBP,JFlash,GDB
T5EF0 000:057.395   Bootloader: (Could not read)
T5EF0 000:058.417   TELNET listener socket opened on port 19021
T5EF0 000:058.511   WEBSRV WEBSRV_Init(): Starting webserver thread(s)
T5EF0 000:058.801   WEBSRV Webserver running on local port 19080
T5EF0 000:058.928   Looking for J-Link GUI Server exe at: F:\Keil_v5\ARM\Segger\JLinkGUIServer.exe
T5EF0 000:059.010   Looking for J-Link GUI Server exe at: C:\Program Files\SEGGER\JLink_V796i\JLinkGUIServer.exe
T5EF0 000:059.047   Forking J-Link GUI Server: C:\Program Files\SEGGER\JLink_V796i\JLinkGUIServer.exe
T5EF0 000:063.830   J-Link GUI Server info: "J-Link GUI server V7.96i "
T5EF0 000:064.212 - 13.279ms returns "O.K."
T5EF0 000:064.244 JLINK_GetEmuCaps()
T5EF0 000:064.253 - 0.006ms returns 0x88EA5833
T5EF0 000:064.261 JLINK_TIF_GetAvailable(...)
T5EF0 000:064.611 - 0.349ms
T5EF0 000:064.633 JLINK_SetErrorOutHandler(...)
T5EF0 000:064.639 - 0.005ms
T5EF0 000:064.676 JLINK_ExecCommand("ProjectFile = "E:\STM32F4_boot\mdk\JLinkSettings.ini"", ...). 
T5EF0 000:075.621   Ref file found at: F:\Keil_v5\ARM\Segger\JLinkDevices.ref
T5EF0 000:075.717   REF file references invalid XML file: C:\Program Files\SEGGER\JLink_V796i\JLinkDevices.xml
T5EF0 000:076.933 - 12.260ms returns 0x00
T5EF0 000:078.530 JLINK_ExecCommand("Device = STM32F407VETx", ...). 
T5EF0 000:081.124   Device "STM32F407VE" selected.
T5EF0 000:081.447 - 2.900ms returns 0x00
T5EF0 000:081.461 JLINK_ExecCommand("DisableConnectionTimeout", ...). 
T5EF0 000:081.469 - 0.001ms returns 0x01
T5EF0 000:081.474 JLINK_GetHardwareVersion()
T5EF0 000:081.479 - 0.004ms returns 70000
T5EF0 000:081.487 JLINK_GetDLLVersion()
T5EF0 000:081.493 - 0.009ms returns 79609
T5EF0 000:081.501 JLINK_GetOEMString(...)
T5EF0 000:081.507 JLINK_GetFirmwareString(...)
T5EF0 000:081.512 - 0.005ms
T5EF0 000:085.332 JLINK_GetDLLVersion()
T5EF0 000:085.347 - 0.014ms returns 79609
T5EF0 000:085.352 JLINK_GetCompileDateTime()
T5EF0 000:085.357 - 0.004ms
T5EF0 000:088.059 JLINK_GetFirmwareString(...)
T5EF0 000:088.072 - 0.013ms
T5EF0 000:090.120 JLINK_GetHardwareVersion()
T5EF0 000:090.135 - 0.014ms returns 70000
T5EF0 000:091.445 JLINK_GetSN()
T5EF0 000:091.457 - 0.011ms returns -1
T5EF0 000:091.462 JLINK_GetOEMString(...)
T5EF0 000:094.006 JLINK_TIF_Select(JLINKARM_TIF_SWD)
T5EF0 000:095.015 - 1.008ms returns 0x00
T5EF0 000:095.027 JLINK_HasError()
T5EF0 000:095.048 JLINK_SetSpeed(5000)
T5EF0 000:095.321 - 0.273ms
T5EF0 000:095.331 JLINK_GetId()
T5EF0 000:097.052   InitTarget() start
T5EF0 000:097.078    J-Link Script File: Executing InitTarget()
T5EF0 000:098.682   SWD selected. Executing JTAG -> SWD switching sequence.
T5EF0 000:106.173   DAP initialized successfully.
T5EF0 000:129.450   InitTarget() end - Took 30.7ms
T5EF0 000:131.851   Found SW-DP with ID 0x2BA01477
T5EF0 000:139.161   Old FW that does not support reading DPIDR via DAP jobs
T5EF0 000:147.963   DPv0 detected
T5EF0 000:150.053   CoreSight SoC-400 or earlier
T5EF0 000:155.405   Scanning AP map to find all available APs
T5EF0 000:164.652   AP[1]: Stopped AP scan as end of AP map has been reached
T5EF0 000:169.764   AP[0]: AHB-AP (IDR: 0x24770011)
T5EF0 000:173.514   Iterating through AP map to find AHB-AP to use
T5EF0 000:185.613   AP[0]: Core found
T5EF0 000:189.130   AP[0]: AHB-AP ROM base: 0xE00FF000
T5EF0 000:197.249   CPUID register: 0x410FC241. Implementer code: 0x41 (ARM)
T5EF0 000:202.195   Found Cortex-M4 r0p1, Little endian.
T5EF0 000:202.976   -- Max. mem block: 0x00002C18
T5EF0 000:203.758   CPU_ReadMem(4 bytes @ 0xE000EDF0)
T5EF0 000:204.395   CPU_ReadMem(4 bytes @ 0xE0002000)
T5EF0 000:208.817   FPUnit: 6 code (BP) slots and 2 literal slots
T5EF0 000:208.832   CPU_ReadMem(4 bytes @ 0xE000EDFC)
T5EF0 000:209.506   CPU_WriteMem(4 bytes @ 0xE000EDFC)
T5EF0 000:210.201   CPU_ReadMem(4 bytes @ 0xE0001000)
T5EF0 000:210.828   CPU_WriteMem(4 bytes @ 0xE0001000)
T5EF0 000:211.507   CPU_ReadMem(4 bytes @ 0xE000ED88)
T5EF0 000:212.168   CPU_WriteMem(4 bytes @ 0xE000ED88)
T5EF0 000:212.797   CPU_ReadMem(4 bytes @ 0xE000ED88)
T5EF0 000:213.407   CPU_WriteMem(4 bytes @ 0xE000ED88)
T5EF0 000:217.786   CoreSight components:
T5EF0 000:221.623   ROMTbl[0] @ E00FF000
T5EF0 000:221.645   CPU_ReadMem(64 bytes @ 0xE00FF000)
T5EF0 000:222.940   CPU_ReadMem(32 bytes @ 0xE000EFE0)
T5EF0 000:227.851   [0][0]: E000E000 CID B105E00D PID 000BB00C SCS-M7
T5EF0 000:227.876   CPU_ReadMem(32 bytes @ 0xE0001FE0)
T5EF0 000:232.637   [0][1]: E0001000 CID B105E00D PID 003BB002 DWT
T5EF0 000:232.657   CPU_ReadMem(32 bytes @ 0xE0002FE0)
T5EF0 000:236.929   [0][2]: E0002000 CID B105E00D PID 002BB003 FPB
T5EF0 000:236.945   CPU_ReadMem(32 bytes @ 0xE0000FE0)
T5EF0 000:244.020   [0][3]: E0000000 CID B105E00D PID 003BB001 ITM
T5EF0 000:244.042   CPU_ReadMem(32 bytes @ 0xE0040FE0)
T5EF0 000:249.423   [0][4]: E0040000 CID B105900D PID 000BB9A1 TPIU
T5EF0 000:249.443   CPU_ReadMem(32 bytes @ 0xE0041FE0)
T5EF0 000:255.910   [0][5]: E0041000 CID B105900D PID 000BB925 ETM
T5EF0 000:256.769 - 161.437ms returns 0x2BA01477
T5EF0 000:256.865 JLINK_GetDLLVersion()
T5EF0 000:256.877 - 0.011ms returns 79609
T5EF0 000:256.886 JLINK_CORE_GetFound()
T5EF0 000:256.893 - 0.006ms returns 0xE0000FF
T5EF0 000:256.902 JLINK_GetDebugInfo(0x100 = JLINKARM_ROM_TABLE_ADDR_INDEX)
T5EF0 000:256.910   Value=0xE00FF000
T5EF0 000:256.920 - 0.018ms returns 0
T5EF0 000:262.463 JLINK_GetDebugInfo(0x100 = JLINKARM_ROM_TABLE_ADDR_INDEX)
T5EF0 000:262.489   Value=0xE00FF000
T5EF0 000:262.495 - 0.033ms returns 0
T5EF0 000:262.501 JLINK_GetDebugInfo(0x101 = JLINKARM_DEBUG_INFO_ETM_ADDR_INDEX)
T5EF0 000:262.505   Value=0xE0041000
T5EF0 000:262.511 - 0.009ms returns 0
T5EF0 000:262.516 JLINK_ReadMemEx(0xE0041FD0, 0x20 Bytes, Flags = 0x02000004)
T5EF0 000:262.557   CPU_ReadMem(32 bytes @ 0xE0041FD0)
T5EF0 000:263.496   Data:  04 00 00 00 00 00 00 00 00 00 00 00 00 00 00 00 ...
T5EF0 000:263.505 - 0.989ms returns 32 (0x20)
T5EF0 000:263.512 JLINK_GetDebugInfo(0x102 = JLINKARM_DEBUG_INFO_MTB_ADDR_INDEX)
T5EF0 000:263.516   Value=0x00000000
T5EF0 000:263.522 - 0.010ms returns 0
T5EF0 000:263.527 JLINK_GetDebugInfo(0x103 = JLINKARM_DEBUG_INFO_TPIU_ADDR_INDEX)
T5EF0 000:263.531   Value=0xE0040000
T5EF0 000:263.537 - 0.010ms returns 0
T5EF0 000:263.542 JLINK_GetDebugInfo(0x104 = JLINKARM_DEBUG_INFO_ITM_ADDR_INDEX)
T5EF0 000:263.546   Value=0xE0000000
T5EF0 000:263.551 - 0.009ms returns 0
T5EF0 000:263.556 JLINK_GetDebugInfo(0x105 = JLINKARM_DEBUG_INFO_DWT_ADDR_INDEX)
T5EF0 000:263.560   Value=0xE0001000
T5EF0 000:263.565 - 0.009ms returns 0
T5EF0 000:263.570 JLINK_GetDebugInfo(0x106 = JLINKARM_DEBUG_INFO_FPB_ADDR_INDEX)
T5EF0 000:263.574   Value=0xE0002000
T5EF0 000:263.579 - 0.009ms returns 0
T5EF0 000:263.584 JLINK_GetDebugInfo(0x107 = JLINKARM_DEBUG_INFO_NVIC_ADDR_INDEX)
T5EF0 000:263.588   Value=0xE000E000
T5EF0 000:263.593 - 0.009ms returns 0
T5EF0 000:263.598 JLINK_GetDebugInfo(0x10C = JLINKARM_DEBUG_INFO_DBG_ADDR_INDEX)
T5EF0 000:263.602   Value=0xE000EDF0
T5EF0 000:263.607 - 0.009ms returns 0
T5EF0 000:263.612 JLINK_GetDebugInfo(0x01 = Unknown)
T5EF0 000:263.616   Value=0x00000001
T5EF0 000:263.622 - 0.009ms returns 0
T5EF0 000:263.627 JLINK_ReadMemU32(0xE000ED00, 0x1 Items)
T5EF0 000:263.634   CPU_ReadMem(4 bytes @ 0xE000ED00)
T5EF0 000:264.247   Data:  41 C2 0F 41
T5EF0 000:264.257   Debug reg: CPUID
T5EF0 000:264.262 - 0.636ms returns 1 (0x1)
T5EF0 000:264.269 JLINK_GetDebugInfo(0x10F = JLINKARM_DEBUG_INFO_HAS_CORTEX_M_SECURITY_EXT_INDEX)
T5EF0 000:264.279   Value=0x00000000
T5EF0 000:264.285 - 0.016ms returns 0
T5EF0 000:264.290 JLINK_HasError()
T5EF0 000:264.296 JLINK_SetResetType(JLINKARM_CM3_RESET_TYPE_NORMAL)
T5EF0 000:264.300 - 0.004ms returns JLINKARM_CM3_RESET_TYPE_NORMAL
T5EF0 000:264.305 JLINK_Reset()
T5EF0 000:264.321   CPU is running
T5EF0 000:264.328   CPU_WriteMem(4 bytes @ 0xE000EDF0)
T5EF0 000:264.986   CPU is running
T5EF0 000:265.002   CPU_WriteMem(4 bytes @ 0xE000EDFC)
T5EF0 000:269.930   Reset: Halt core after reset via DEMCR.VC_CORERESET.
T5EF0 000:275.749   Reset: Reset device via AIRCR.SYSRESETREQ.
T5EF0 000:275.776   CPU is running
T5EF0 000:275.788   CPU_WriteMem(4 bytes @ 0xE000ED0C)
T5EF0 000:330.709   CPU_ReadMem(4 bytes @ 0xE000EDF0)
T5EF0 000:331.362   CPU_ReadMem(4 bytes @ 0xE000EDF0)
T5EF0 000:335.499   CPU_WriteMem(4 bytes @ 0xE000EDFC)
T5EF0 000:341.309   CPU_ReadMem(4 bytes @ 0xE000EDF0)
T5EF0 000:345.401   CPU_WriteMem(4 bytes @ 0xE0002000)
T5EF0 000:346.072   CPU_ReadMem(4 bytes @ 0xE000EDFC)
T5EF0 000:346.687   CPU_ReadMem(4 bytes @ 0xE0001000)
T5EF0 000:347.329 - 83.023ms
T5EF0 000:347.399 JLINK_Halt()
T5EF0 000:347.409 - 0.009ms returns 0x00
T5EF0 000:347.417 JLINK_ReadMemU32(0xE000EDF0, 0x1 Items)
T5EF0 000:347.431   CPU_ReadMem(4 bytes @ 0xE000EDF0)
T5EF0 000:348.059   Data:  03 00 03 00
T5EF0 000:348.077   Debug reg: DHCSR
T5EF0 000:348.086 - 0.668ms returns 1 (0x1)
T5EF0 000:348.101 JLINK_WriteU32_64(0xE000EDF0, 0xA05F0003)
T5EF0 000:348.107   Debug reg: DHCSR
T5EF0 000:348.459   CPU_WriteMem(4 bytes @ 0xE000EDF0)
T5EF0 000:349.106 - 1.009ms returns 0 (0x00000000)
T5EF0 000:349.124 JLINK_WriteU32_64(0xE000EDFC, 0x01000000)
T5EF0 000:349.131   Debug reg: DEMCR
T5EF0 000:349.147   CPU_WriteMem(4 bytes @ 0xE000EDFC)
T5EF0 000:349.816 - 0.691ms returns 0 (0x00000000)
T5EF0 000:370.413 JLINK_GetHWStatus(...)
T5EF0 000:370.760 - 0.346ms returns 0
T5EF0 000:382.777 JLINK_GetNumBPUnits(Type = 0xFFFFFF00)
T5EF0 000:382.797 - 0.021ms returns 0x06
T5EF0 000:382.803 JLINK_GetNumBPUnits(Type = 0xF0)
T5EF0 000:382.807 - 0.004ms returns 0x2000
T5EF0 000:382.812 JLINK_GetNumWPUnits()
T5EF0 000:382.816 - 0.003ms returns 4
T5EF0 000:394.510 JLINK_GetSpeed()
T5EF0 000:394.528 - 0.018ms returns 4000
T5EF0 000:401.988 JLINK_ReadMemU32(0xE000E004, 0x1 Items)
T5EF0 000:402.019   CPU_ReadMem(4 bytes @ 0xE000E004)
T5EF0 000:402.660   Data:  02 00 00 00
T5EF0 000:402.676 - 0.687ms returns 1 (0x1)
T5EF0 000:402.684 JLINK_ReadMemU32(0xE000E004, 0x1 Items)
T5EF0 000:402.694   CPU_ReadMem(4 bytes @ 0xE000E004)
T5EF0 000:403.323   Data:  02 00 00 00
T5EF0 000:403.342 - 0.657ms returns 1 (0x1)
T5EF0 000:403.354 JLINK_WriteMemEx(0xE0001000, 0x0000001C Bytes, Flags = 0x02000004)
T5EF0 000:403.361   Data:  01 00 00 00 00 00 00 00 00 00 00 00 00 00 00 00 ...
T5EF0 000:403.381   CPU_WriteMem(28 bytes @ 0xE0001000)
T5EF0 000:404.349 - 0.995ms returns 0x1C
T5EF0 000:404.363 JLINK_Halt()
T5EF0 000:404.367 - 0.004ms returns 0x00
T5EF0 000:404.373 JLINK_IsHalted()
T5EF0 000:404.377 - 0.004ms returns TRUE
T5EF0 000:407.828 JLINK_WriteMem(0x20000000, 0x184 Bytes, ...)
T5EF0 000:407.836   Data:  00 BE 0A E0 0D 78 2D 06 68 40 08 24 40 00 00 D3 ...
T5EF0 000:408.091   CPU_WriteMem(388 bytes @ 0x20000000)
T5EF0 000:413.954 - 6.126ms returns 0x184
T5EF0 000:414.805 JLINK_HasError()
T5EF0 000:415.079 JLINK_WriteReg(R0, 0x08000000)
T5EF0 000:415.263 - 0.398ms returns 0
T5EF0 000:415.308 JLINK_WriteReg(R1, 0x00B71B00)
T5EF0 000:415.316 - 0.008ms returns 0
T5EF0 000:415.323 JLINK_WriteReg(R2, 0x00000001)
T5EF0 000:415.327 - 0.004ms returns 0
T5EF0 000:415.332 JLINK_WriteReg(R3, 0x00000000)
T5EF0 000:415.352 - 0.017ms returns 0
T5EF0 000:415.358 JLINK_WriteReg(R4, 0x00000000)
T5EF0 000:415.362 - 0.004ms returns 0
T5EF0 000:415.367 JLINK_WriteReg(R5, 0x00000000)
T5EF0 000:415.371 - 0.004ms returns 0
T5EF0 000:415.375 JLINK_WriteReg(R6, 0x00000000)
T5EF0 000:415.383 - 0.007ms returns 0
T5EF0 000:415.389 JLINK_WriteReg(R7, 0x00000000)
T5EF0 000:415.478 - 0.088ms returns 0
T5EF0 000:415.493 JLINK_WriteReg(R8, 0x00000000)
T5EF0 000:415.499 - 0.007ms returns 0
T5EF0 000:415.507 JLINK_WriteReg(R9, 0x20000180)
T5EF0 000:415.513 - 0.005ms returns 0
T5EF0 000:415.520 JLINK_WriteReg(R10, 0x00000000)
T5EF0 000:415.525 - 0.005ms returns 0
T5EF0 000:415.534 JLINK_WriteReg(R11, 0x00000000)
T5EF0 000:415.540 - 0.006ms returns 0
T5EF0 000:415.547 JLINK_WriteReg(R12, 0x00000000)
T5EF0 000:415.558 - 0.011ms returns 0
T5EF0 000:415.564 JLINK_WriteReg(R13 (SP), 0x20001000)
T5EF0 000:415.574 - 0.009ms returns 0
T5EF0 000:415.582 JLINK_WriteReg(R14, 0x20000001)
T5EF0 000:415.588 - 0.006ms returns 0
T5EF0 000:415.711 JLINK_WriteReg(R15 (PC), 0x20000054)
T5EF0 000:415.764 - 0.169ms returns 0
T5EF0 000:415.800 JLINK_WriteReg(XPSR, 0x01000000)
T5EF0 000:415.812 - 0.012ms returns 0
T5EF0 000:415.818 JLINK_WriteReg(MSP, 0x20001000)
T5EF0 000:415.824 - 0.005ms returns 0
T5EF0 000:415.830 JLINK_WriteReg(PSP, 0x20001000)
T5EF0 000:415.835 - 0.004ms returns 0
T5EF0 000:415.840 JLINK_WriteReg(CFBP, 0x00000000)
T5EF0 000:415.846 - 0.005ms returns 0
T5EF0 000:415.852 JLINK_SetBPEx(Addr = 0x20000000, Type = 0xFFFFFFF2)
T5EF0 000:415.865   CPU_ReadMem(2 bytes @ 0x20000000)
T5EF0 000:416.489 - 0.637ms returns 0x00000001
T5EF0 000:416.503 JLINK_Go()
T5EF0 000:416.510   CPU_WriteMem(2 bytes @ 0x20000000)
T5EF0 000:417.183   CPU_ReadMem(4 bytes @ 0xE0001000)
T5EF0 000:417.807   CPU_WriteMem(4 bytes @ 0xE0002008)
T5EF0 000:417.825   CPU_WriteMem(4 bytes @ 0xE000200C)
T5EF0 000:417.835   CPU_WriteMem(4 bytes @ 0xE0002010)
T5EF0 000:417.844   CPU_WriteMem(4 bytes @ 0xE0002014)
T5EF0 000:417.852   CPU_WriteMem(4 bytes @ 0xE0002018)
T5EF0 000:417.860   CPU_WriteMem(4 bytes @ 0xE000201C)
T5EF0 000:420.356   CPU_WriteMem(4 bytes @ 0xE0001004)
T5EF0 000:429.786   Memory map 'after startup completion point' is active
T5EF0 000:429.811 - 13.307ms
T5EF0 000:429.829 JLINK_IsHalted()
T5EF0 000:433.357   CPU_ReadMem(2 bytes @ 0x20000000)
T5EF0 000:433.989 - 4.158ms returns TRUE
T5EF0 000:434.015 JLINK_ReadReg(R15 (PC))
T5EF0 000:434.027 - 0.011ms returns 0x20000000
T5EF0 000:434.039 JLINK_ClrBPEx(BPHandle = 0x00000001)
T5EF0 000:434.047 - 0.008ms returns 0x00
T5EF0 000:434.059 JLINK_ReadReg(R0)
T5EF0 000:434.066 - 0.007ms returns 0x00000000
T5EF0 000:434.412 JLINK_HasError()
T5EF0 000:434.423 JLINK_WriteReg(R0, 0x08000000)
T5EF0 000:434.429 - 0.005ms returns 0
T5EF0 000:434.434 JLINK_WriteReg(R1, 0x00004000)
T5EF0 000:434.438 - 0.004ms returns 0
T5EF0 000:434.443 JLINK_WriteReg(R2, 0x000000FF)
T5EF0 000:434.447 - 0.004ms returns 0
T5EF0 000:434.452 JLINK_WriteReg(R3, 0x00000000)
T5EF0 000:434.456 - 0.004ms returns 0
T5EF0 000:434.460 JLINK_WriteReg(R4, 0x00000000)
T5EF0 000:434.464 - 0.004ms returns 0
T5EF0 000:434.469 JLINK_WriteReg(R5, 0x00000000)
T5EF0 000:434.473 - 0.004ms returns 0
T5EF0 000:434.478 JLINK_WriteReg(R6, 0x00000000)
T5EF0 000:434.482 - 0.004ms returns 0
T5EF0 000:434.487 JLINK_WriteReg(R7, 0x00000000)
T5EF0 000:434.491 - 0.004ms returns 0
T5EF0 000:434.495 JLINK_WriteReg(R8, 0x00000000)
T5EF0 000:434.500 - 0.004ms returns 0
T5EF0 000:434.504 JLINK_WriteReg(R9, 0x20000180)
T5EF0 000:434.508 - 0.004ms returns 0
T5EF0 000:434.513 JLINK_WriteReg(R10, 0x00000000)
T5EF0 000:434.517 - 0.004ms returns 0
T5EF0 000:434.522 JLINK_WriteReg(R11, 0x00000000)
T5EF0 000:434.526 - 0.004ms returns 0
T5EF0 000:434.530 JLINK_WriteReg(R12, 0x00000000)
T5EF0 000:434.534 - 0.004ms returns 0
T5EF0 000:434.539 JLINK_WriteReg(R13 (SP), 0x20001000)
T5EF0 000:434.543 - 0.004ms returns 0
T5EF0 000:434.548 JLINK_WriteReg(R14, 0x20000001)
T5EF0 000:434.552 - 0.004ms returns 0
T5EF0 000:434.557 JLINK_WriteReg(R15 (PC), 0x20000020)
T5EF0 000:434.561 - 0.004ms returns 0
T5EF0 000:434.566 JLINK_WriteReg(XPSR, 0x01000000)
T5EF0 000:434.570 - 0.004ms returns 0
T5EF0 000:434.574 JLINK_WriteReg(MSP, 0x20001000)
T5EF0 000:434.578 - 0.004ms returns 0
T5EF0 000:434.583 JLINK_WriteReg(PSP, 0x20001000)
T5EF0 000:434.587 - 0.004ms returns 0
T5EF0 000:434.657 JLINK_WriteReg(CFBP, 0x00000000)
T5EF0 000:434.662 - 0.004ms returns 0
T5EF0 000:434.667 JLINK_SetBPEx(Addr = 0x20000000, Type = 0xFFFFFFF2)
T5EF0 000:434.672 - 0.005ms returns 0x00000002
T5EF0 000:434.677 JLINK_Go()
T5EF0 000:434.688   CPU_ReadMem(4 bytes @ 0xE0001000)
T5EF0 000:438.701 - 4.023ms
T5EF0 000:438.722 JLINK_IsHalted()
T5EF0 000:442.272   CPU_ReadMem(2 bytes @ 0x20000000)
T5EF0 000:442.936 - 4.213ms returns TRUE
T5EF0 000:442.956 JLINK_ReadReg(R15 (PC))
T5EF0 000:442.966 - 0.009ms returns 0x20000000
T5EF0 000:442.975 JLINK_ClrBPEx(BPHandle = 0x00000002)
T5EF0 000:442.982 - 0.007ms returns 0x00
T5EF0 000:442.991 JLINK_ReadReg(R0)
T5EF0 000:442.998 - 0.007ms returns 0x00000001
T5EF0 000:443.007 JLINK_HasError()
T5EF0 000:443.015 JLINK_WriteReg(R0, 0x08000000)
T5EF0 000:443.023 - 0.007ms returns 0
T5EF0 000:443.031 JLINK_WriteReg(R1, 0x00004000)
T5EF0 000:443.038 - 0.007ms returns 0
T5EF0 000:443.046 JLINK_WriteReg(R2, 0x000000FF)
T5EF0 000:443.053 - 0.006ms returns 0
T5EF0 000:443.062 JLINK_WriteReg(R3, 0x00000000)
T5EF0 000:443.069 - 0.007ms returns 0
T5EF0 000:443.077 JLINK_WriteReg(R4, 0x00000000)
T5EF0 000:443.084 - 0.007ms returns 0
T5EF0 000:443.092 JLINK_WriteReg(R5, 0x00000000)
T5EF0 000:443.099 - 0.007ms returns 0
T5EF0 000:443.107 JLINK_WriteReg(R6, 0x00000000)
T5EF0 000:443.114 - 0.006ms returns 0
T5EF0 000:443.122 JLINK_WriteReg(R7, 0x00000000)
T5EF0 000:443.128 - 0.006ms returns 0
T5EF0 000:443.136 JLINK_WriteReg(R8, 0x00000000)
T5EF0 000:443.143 - 0.006ms returns 0
T5EF0 000:443.151 JLINK_WriteReg(R9, 0x20000180)
T5EF0 000:443.158 - 0.006ms returns 0
T5EF0 000:443.166 JLINK_WriteReg(R10, 0x00000000)
T5EF0 000:443.175 - 0.008ms returns 0
T5EF0 000:443.185 JLINK_WriteReg(R11, 0x00000000)
T5EF0 000:443.190 - 0.006ms returns 0
T5EF0 000:443.196 JLINK_WriteReg(R12, 0x00000000)
T5EF0 000:443.202 - 0.005ms returns 0
T5EF0 000:443.208 JLINK_WriteReg(R13 (SP), 0x20001000)
T5EF0 000:443.213 - 0.005ms returns 0
T5EF0 000:443.219 JLINK_WriteReg(R14, 0x20000001)
T5EF0 000:443.224 - 0.005ms returns 0
T5EF0 000:443.230 JLINK_WriteReg(R15 (PC), 0x200000C0)
T5EF0 000:443.235 - 0.005ms returns 0
T5EF0 000:443.242 JLINK_WriteReg(XPSR, 0x01000000)
T5EF0 000:443.247 - 0.005ms returns 0
T5EF0 000:443.253 JLINK_WriteReg(MSP, 0x20001000)
T5EF0 000:443.258 - 0.005ms returns 0
T5EF0 000:443.264 JLINK_WriteReg(PSP, 0x20001000)
T5EF0 000:443.270 - 0.005ms returns 0
T5EF0 000:443.276 JLINK_WriteReg(CFBP, 0x00000000)
T5EF0 000:443.281 - 0.005ms returns 0
T5EF0 000:443.290 JLINK_SetBPEx(Addr = 0x20000000, Type = 0xFFFFFFF2)
T5EF0 000:443.300 - 0.010ms returns 0x00000003
T5EF0 000:443.309 JLINK_Go()
T5EF0 000:443.325   CPU_ReadMem(4 bytes @ 0xE0001000)
T5EF0 000:447.326 - 4.016ms
T5EF0 000:447.346 JLINK_IsHalted()
T5EF0 000:447.959 - 0.612ms returns FALSE
T5EF0 000:447.975 JLINK_HasError()
T5EF0 000:583.058 JLINK_IsHalted()
T5EF0 000:583.686 - 0.628ms returns FALSE
T5EF0 000:583.703 JLINK_HasError()
T5EF0 000:594.068 JLINK_IsHalted()
T5EF0 000:594.739 - 0.670ms returns FALSE
T5EF0 000:594.757 JLINK_HasError()
T5EF0 000:596.052 JLINK_IsHalted()
T5EF0 000:596.730 - 0.676ms returns FALSE
T5EF0 000:596.751 JLINK_HasError()
T5EF0 000:598.334 JLINK_IsHalted()
T5EF0 000:598.947 - 0.612ms returns FALSE
T5EF0 000:598.967 JLINK_HasError()
T5EF0 000:600.335 JLINK_IsHalted()
T5EF0 000:600.940 - 0.604ms returns FALSE
T5EF0 000:600.955 JLINK_HasError()
T5EF0 000:602.634 JLINK_IsHalted()
T5EF0 000:603.250 - 0.616ms returns FALSE
T5EF0 000:603.270 JLINK_HasError()
T5EF0 000:605.057 JLINK_IsHalted()
T5EF0 000:605.628 - 0.571ms returns FALSE
T5EF0 000:605.641 JLINK_HasError()
T5EF0 000:607.059 JLINK_IsHalted()
T5EF0 000:607.654 - 0.594ms returns FALSE
T5EF0 000:607.673 JLINK_HasError()
T5EF0 000:609.335 JLINK_IsHalted()
T5EF0 000:610.046 - 0.710ms returns FALSE
T5EF0 000:610.059 JLINK_HasError()
T5EF0 000:611.359 JLINK_IsHalted()
T5EF0 000:611.923 - 0.563ms returns FALSE
T5EF0 000:611.935 JLINK_HasError()
T5EF0 000:613.387 JLINK_IsHalted()
T5EF0 000:614.056 - 0.668ms returns FALSE
T5EF0 000:614.074 JLINK_HasError()
T5EF0 000:615.543 JLINK_IsHalted()
T5EF0 000:616.195 - 0.651ms returns FALSE
T5EF0 000:616.214 JLINK_HasError()
T5EF0 000:618.186 JLINK_IsHalted()
T5EF0 000:618.779 - 0.592ms returns FALSE
T5EF0 000:618.792 JLINK_HasError()
T5EF0 000:620.432 JLINK_IsHalted()
T5EF0 000:621.060 - 0.628ms returns FALSE
T5EF0 000:621.070 JLINK_HasError()
T5EF0 000:622.759 JLINK_IsHalted()
T5EF0 000:623.353 - 0.594ms returns FALSE
T5EF0 000:623.364 JLINK_HasError()
T5EF0 000:624.777 JLINK_IsHalted()
T5EF0 000:625.399 - 0.622ms returns FALSE
T5EF0 000:625.415 JLINK_HasError()
T5EF0 000:626.767 JLINK_IsHalted()
T5EF0 000:627.483 - 0.715ms returns FALSE
T5EF0 000:627.504 JLINK_HasError()
T5EF0 000:628.770 JLINK_IsHalted()
T5EF0 000:629.486 - 0.715ms returns FALSE
T5EF0 000:629.500 JLINK_HasError()
T5EF0 000:631.289 JLINK_IsHalted()
T5EF0 000:631.884 - 0.594ms returns FALSE
T5EF0 000:631.904 JLINK_HasError()
T5EF0 000:637.794 JLINK_IsHalted()
T5EF0 000:638.492 - 0.697ms returns FALSE
T5EF0 000:638.513 JLINK_HasError()
T5EF0 000:640.496 JLINK_IsHalted()
T5EF0 000:641.114 - 0.617ms returns FALSE
T5EF0 000:641.130 JLINK_HasError()
T5EF0 000:642.530 JLINK_IsHalted()
T5EF0 000:643.175 - 0.644ms returns FALSE
T5EF0 000:643.196 JLINK_HasError()
T5EF0 000:644.527 JLINK_IsHalted()
T5EF0 000:645.177 - 0.649ms returns FALSE
T5EF0 000:645.191 JLINK_HasError()
T5EF0 000:646.535 JLINK_IsHalted()
T5EF0 000:647.243 - 0.707ms returns FALSE
T5EF0 000:647.261 JLINK_HasError()
T5EF0 000:651.262 JLINK_IsHalted()
T5EF0 000:651.899 - 0.636ms returns FALSE
T5EF0 000:651.910 JLINK_HasError()
T5EF0 000:653.259 JLINK_IsHalted()
T5EF0 000:653.891 - 0.632ms returns FALSE
T5EF0 000:653.905 JLINK_HasError()
T5EF0 000:655.262 JLINK_IsHalted()
T5EF0 000:655.842 - 0.579ms returns FALSE
T5EF0 000:655.858 JLINK_HasError()
T5EF0 000:657.840 JLINK_IsHalted()
T5EF0 000:658.490 - 0.650ms returns FALSE
T5EF0 000:658.507 JLINK_HasError()
T5EF0 000:659.845 JLINK_IsHalted()
T5EF0 000:660.487 - 0.641ms returns FALSE
T5EF0 000:660.503 JLINK_HasError()
T5EF0 000:662.353 JLINK_IsHalted()
T5EF0 000:662.963 - 0.609ms returns FALSE
T5EF0 000:662.994 JLINK_HasError()
T5EF0 000:664.352 JLINK_IsHalted()
T5EF0 000:664.931 - 0.578ms returns FALSE
T5EF0 000:664.942 JLINK_HasError()
T5EF0 000:666.352 JLINK_IsHalted()
T5EF0 000:667.010 - 0.657ms returns FALSE
T5EF0 000:667.026 JLINK_HasError()
T5EF0 000:705.532 JLINK_IsHalted()
T5EF0 000:706.265 - 0.731ms returns FALSE
T5EF0 000:706.287 JLINK_HasError()
T5EF0 000:707.851 JLINK_IsHalted()
T5EF0 000:708.481 - 0.629ms returns FALSE
T5EF0 000:708.496 JLINK_HasError()
T5EF0 000:710.116 JLINK_IsHalted()
T5EF0 000:710.690 - 0.573ms returns FALSE
T5EF0 000:710.699 JLINK_HasError()
T5EF0 000:714.416 JLINK_IsHalted()
T5EF0 000:714.993 - 0.576ms returns FALSE
T5EF0 000:715.013 JLINK_HasError()
T5EF0 000:716.424 JLINK_IsHalted()
T5EF0 000:717.029 - 0.605ms returns FALSE
T5EF0 000:717.044 JLINK_HasError()
T5EF0 000:718.419 JLINK_IsHalted()
T5EF0 000:718.965 - 0.545ms returns FALSE
T5EF0 000:718.975 JLINK_HasError()
T5EF0 000:720.417 JLINK_IsHalted()
T5EF0 000:721.005 - 0.587ms returns FALSE
T5EF0 000:721.014 JLINK_HasError()
T5EF0 000:722.418 JLINK_IsHalted()
T5EF0 000:722.972 - 0.553ms returns FALSE
T5EF0 000:722.987 JLINK_HasError()
T5EF0 000:724.425 JLINK_IsHalted()
T5EF0 000:725.044 - 0.619ms returns FALSE
T5EF0 000:725.061 JLINK_HasError()
T5EF0 000:726.665 JLINK_IsHalted()
T5EF0 000:727.350 - 0.684ms returns FALSE
T5EF0 000:727.365 JLINK_HasError()
T5EF0 000:729.348 JLINK_IsHalted()
T5EF0 000:729.959 - 0.611ms returns FALSE
T5EF0 000:729.974 JLINK_HasError()
T5EF0 000:731.421 JLINK_IsHalted()
T5EF0 000:731.985 - 0.564ms returns FALSE
T5EF0 000:731.998 JLINK_HasError()
T5EF0 000:733.481 JLINK_IsHalted()
T5EF0 000:734.097 - 0.616ms returns FALSE
T5EF0 000:734.111 JLINK_HasError()
T5EF0 000:735.540 JLINK_IsHalted()
T5EF0 000:736.221 - 0.680ms returns FALSE
T5EF0 000:736.243 JLINK_HasError()
T5EF0 000:738.057 JLINK_IsHalted()
T5EF0 000:738.701 - 0.644ms returns FALSE
T5EF0 000:738.720 JLINK_HasError()
T5EF0 000:754.832 JLINK_IsHalted()
T5EF0 000:755.493 - 0.660ms returns FALSE
T5EF0 000:755.509 JLINK_HasError()
T5EF0 000:765.890 JLINK_IsHalted()
T5EF0 000:766.546 - 0.654ms returns FALSE
T5EF0 000:766.562 JLINK_HasError()
T5EF0 000:767.963 JLINK_IsHalted()
T5EF0 000:768.561 - 0.597ms returns FALSE
T5EF0 000:768.576 JLINK_HasError()
T5EF0 000:771.060 JLINK_IsHalted()
T5EF0 000:771.669 - 0.608ms returns FALSE
T5EF0 000:771.684 JLINK_HasError()
T5EF0 000:778.581 JLINK_IsHalted()
T5EF0 000:779.177 - 0.596ms returns FALSE
T5EF0 000:779.197 JLINK_HasError()
T5EF0 000:781.206 JLINK_IsHalted()
T5EF0 000:781.812 - 0.605ms returns FALSE
T5EF0 000:781.828 JLINK_HasError()
T5EF0 000:783.525 JLINK_IsHalted()
T5EF0 000:784.093 - 0.567ms returns FALSE
T5EF0 000:784.104 JLINK_HasError()
T5EF0 000:785.526 JLINK_IsHalted()
T5EF0 000:786.091 - 0.565ms returns FALSE
T5EF0 000:786.104 JLINK_HasError()
T5EF0 000:791.039 JLINK_IsHalted()
T5EF0 000:791.642 - 0.603ms returns FALSE
T5EF0 000:791.662 JLINK_HasError()
T5EF0 000:793.038 JLINK_IsHalted()
T5EF0 000:793.681 - 0.642ms returns FALSE
T5EF0 000:793.695 JLINK_HasError()
T5EF0 000:795.038 JLINK_IsHalted()
T5EF0 000:795.680 - 0.642ms returns FALSE
T5EF0 000:795.691 JLINK_HasError()
T5EF0 000:797.285 JLINK_IsHalted()
T5EF0 000:798.044 - 0.758ms returns FALSE
T5EF0 000:798.058 JLINK_HasError()
T5EF0 000:799.277 JLINK_IsHalted()
T5EF0 000:802.763   CPU_ReadMem(2 bytes @ 0x20000000)
T5EF0 000:803.422 - 4.144ms returns TRUE
T5EF0 000:803.434 JLINK_ReadReg(R15 (PC))
T5EF0 000:803.441 - 0.007ms returns 0x20000000
T5EF0 000:803.447 JLINK_ClrBPEx(BPHandle = 0x00000003)
T5EF0 000:803.451 - 0.004ms returns 0x00
T5EF0 000:803.457 JLINK_ReadReg(R0)
T5EF0 000:803.461 - 0.004ms returns 0x00000000
T5EF0 000:804.043 JLINK_HasError()
T5EF0 000:804.056 JLINK_WriteReg(R0, 0x00000001)
T5EF0 000:804.062 - 0.006ms returns 0
T5EF0 000:804.067 JLINK_WriteReg(R1, 0x00004000)
T5EF0 000:804.072 - 0.004ms returns 0
T5EF0 000:804.076 JLINK_WriteReg(R2, 0x000000FF)
T5EF0 000:804.080 - 0.004ms returns 0
T5EF0 000:804.085 JLINK_WriteReg(R3, 0x00000000)
T5EF0 000:804.089 - 0.004ms returns 0
T5EF0 000:804.094 JLINK_WriteReg(R4, 0x00000000)
T5EF0 000:804.098 - 0.004ms returns 0
T5EF0 000:804.103 JLINK_WriteReg(R5, 0x00000000)
T5EF0 000:804.107 - 0.004ms returns 0
T5EF0 000:804.111 JLINK_WriteReg(R6, 0x00000000)
T5EF0 000:804.115 - 0.004ms returns 0
T5EF0 000:804.120 JLINK_WriteReg(R7, 0x00000000)
T5EF0 000:804.124 - 0.004ms returns 0
T5EF0 000:804.129 JLINK_WriteReg(R8, 0x00000000)
T5EF0 000:804.133 - 0.004ms returns 0
T5EF0 000:804.137 JLINK_WriteReg(R9, 0x20000180)
T5EF0 000:804.141 - 0.004ms returns 0
T5EF0 000:804.146 JLINK_WriteReg(R10, 0x00000000)
T5EF0 000:804.150 - 0.004ms returns 0
T5EF0 000:804.155 JLINK_WriteReg(R11, 0x00000000)
T5EF0 000:804.159 - 0.004ms returns 0
T5EF0 000:804.164 JLINK_WriteReg(R12, 0x00000000)
T5EF0 000:804.168 - 0.004ms returns 0
T5EF0 000:804.173 JLINK_WriteReg(R13 (SP), 0x20001000)
T5EF0 000:804.177 - 0.004ms returns 0
T5EF0 000:804.182 JLINK_WriteReg(R14, 0x20000001)
T5EF0 000:804.186 - 0.004ms returns 0
T5EF0 000:804.191 JLINK_WriteReg(R15 (PC), 0x20000086)
T5EF0 000:804.195 - 0.004ms returns 0
T5EF0 000:804.200 JLINK_WriteReg(XPSR, 0x01000000)
T5EF0 000:804.204 - 0.004ms returns 0
T5EF0 000:804.209 JLINK_WriteReg(MSP, 0x20001000)
T5EF0 000:804.213 - 0.004ms returns 0
T5EF0 000:804.217 JLINK_WriteReg(PSP, 0x20001000)
T5EF0 000:804.221 - 0.004ms returns 0
T5EF0 000:804.226 JLINK_WriteReg(CFBP, 0x00000000)
T5EF0 000:804.230 - 0.004ms returns 0
T5EF0 000:804.236 JLINK_SetBPEx(Addr = 0x20000000, Type = 0xFFFFFFF2)
T5EF0 000:804.241 - 0.005ms returns 0x00000004
T5EF0 000:804.245 JLINK_Go()
T5EF0 000:804.256   CPU_ReadMem(4 bytes @ 0xE0001000)
T5EF0 000:808.221 - 3.974ms
T5EF0 000:808.241 JLINK_IsHalted()
T5EF0 000:811.732   CPU_ReadMem(2 bytes @ 0x20000000)
T5EF0 000:812.346 - 4.104ms returns TRUE
T5EF0 000:812.361 JLINK_ReadReg(R15 (PC))
T5EF0 000:812.369 - 0.008ms returns 0x20000000
T5EF0 000:812.375 JLINK_ClrBPEx(BPHandle = 0x00000004)
T5EF0 000:812.381 - 0.005ms returns 0x00
T5EF0 000:812.388 JLINK_ReadReg(R0)
T5EF0 000:812.393 - 0.005ms returns 0x00000000
T5EF0 000:875.321 JLINK_WriteMem(0x20000000, 0x184 Bytes, ...)
T5EF0 000:875.336   Data:  00 BE 0A E0 0D 78 2D 06 68 40 08 24 40 00 00 D3 ...
T5EF0 000:875.356   CPU_WriteMem(388 bytes @ 0x20000000)
T5EF0 000:880.584 - 5.262ms returns 0x184
T5EF0 000:880.653 JLINK_HasError()
T5EF0 000:880.666 JLINK_WriteReg(R0, 0x08000000)
T5EF0 000:880.677 - 0.011ms returns 0
T5EF0 000:880.686 JLINK_WriteReg(R1, 0x00B71B00)
T5EF0 000:880.693 - 0.007ms returns 0
T5EF0 000:880.701 JLINK_WriteReg(R2, 0x00000002)
T5EF0 000:880.708 - 0.007ms returns 0
T5EF0 000:880.716 JLINK_WriteReg(R3, 0x00000000)
T5EF0 000:880.723 - 0.006ms returns 0
T5EF0 000:880.731 JLINK_WriteReg(R4, 0x00000000)
T5EF0 000:880.738 - 0.006ms returns 0
T5EF0 000:880.746 JLINK_WriteReg(R5, 0x00000000)
T5EF0 000:880.753 - 0.006ms returns 0
T5EF0 000:880.761 JLINK_WriteReg(R6, 0x00000000)
T5EF0 000:880.768 - 0.007ms returns 0
T5EF0 000:880.776 JLINK_WriteReg(R7, 0x00000000)
T5EF0 000:880.783 - 0.006ms returns 0
T5EF0 000:880.803 JLINK_WriteReg(R8, 0x00000000)
T5EF0 000:880.810 - 0.007ms returns 0
T5EF0 000:880.818 JLINK_WriteReg(R9, 0x20000180)
T5EF0 000:880.825 - 0.007ms returns 0
T5EF0 000:880.833 JLINK_WriteReg(R10, 0x00000000)
T5EF0 000:880.840 - 0.007ms returns 0
T5EF0 000:880.848 JLINK_WriteReg(R11, 0x00000000)
T5EF0 000:880.855 - 0.007ms returns 0
T5EF0 000:880.863 JLINK_WriteReg(R12, 0x00000000)
T5EF0 000:880.870 - 0.006ms returns 0
T5EF0 000:880.878 JLINK_WriteReg(R13 (SP), 0x20001000)
T5EF0 000:880.886 - 0.007ms returns 0
T5EF0 000:880.894 JLINK_WriteReg(R14, 0x20000001)
T5EF0 000:880.901 - 0.007ms returns 0
T5EF0 000:880.909 JLINK_WriteReg(R15 (PC), 0x20000054)
T5EF0 000:880.916 - 0.007ms returns 0
T5EF0 000:880.924 JLINK_WriteReg(XPSR, 0x01000000)
T5EF0 000:880.931 - 0.007ms returns 0
T5EF0 000:880.939 JLINK_WriteReg(MSP, 0x20001000)
T5EF0 000:880.946 - 0.007ms returns 0
T5EF0 000:880.954 JLINK_WriteReg(PSP, 0x20001000)
T5EF0 000:880.962 - 0.007ms returns 0
T5EF0 000:880.970 JLINK_WriteReg(CFBP, 0x00000000)
T5EF0 000:880.977 - 0.007ms returns 0
T5EF0 000:880.986 JLINK_SetBPEx(Addr = 0x20000000, Type = 0xFFFFFFF2)
T5EF0 000:881.000   CPU_ReadMem(2 bytes @ 0x20000000)
T5EF0 000:881.702 - 0.716ms returns 0x00000005
T5EF0 000:881.719 JLINK_Go()
T5EF0 000:881.728   CPU_WriteMem(2 bytes @ 0x20000000)
T5EF0 000:882.391   CPU_ReadMem(4 bytes @ 0xE0001000)
T5EF0 000:886.307 - 4.587ms
T5EF0 000:886.323 JLINK_IsHalted()
T5EF0 000:889.815   CPU_ReadMem(2 bytes @ 0x20000000)
T5EF0 000:890.441 - 4.117ms returns TRUE
T5EF0 000:890.457 JLINK_ReadReg(R15 (PC))
T5EF0 000:890.465 - 0.007ms returns 0x20000000
T5EF0 000:890.471 JLINK_ClrBPEx(BPHandle = 0x00000005)
T5EF0 000:890.477 - 0.005ms returns 0x00
T5EF0 000:890.483 JLINK_ReadReg(R0)
T5EF0 000:890.489 - 0.005ms returns 0x00000000
T5EF0 000:890.873 JLINK_WriteMem(0x20000184, 0x27C Bytes, ...)
T5EF0 000:890.883   Data:  78 46 00 20 DD 02 00 08 E5 02 00 08 E7 02 00 08 ...
T5EF0 000:890.902   CPU_WriteMem(636 bytes @ 0x20000184)
T5EF0 000:898.842 - 7.968ms returns 0x27C
T5EF0 000:898.884 JLINK_WriteMem(0x20000400, 0x184 Bytes, ...)
T5EF0 000:898.890   Data:  E3 29 00 F0 8F 87 F3 29 00 F0 94 87 00 20 70 47 ...
T5EF0 000:898.913   CPU_WriteMem(388 bytes @ 0x20000400)
T5EF0 000:904.194 - 5.309ms returns 0x184
T5EF0 000:904.227 JLINK_HasError()
T5EF0 000:904.299 JLINK_WriteReg(R0, 0x08000000)
T5EF0 000:904.313 - 0.014ms returns 0
T5EF0 000:904.322 JLINK_WriteReg(R1, 0x00000400)
T5EF0 000:904.329 - 0.007ms returns 0
T5EF0 000:904.337 JLINK_WriteReg(R2, 0x20000184)
T5EF0 000:904.344 - 0.006ms returns 0
T5EF0 000:904.352 JLINK_WriteReg(R3, 0x00000000)
T5EF0 000:904.359 - 0.007ms returns 0
T5EF0 000:904.367 JLINK_WriteReg(R4, 0x00000000)
T5EF0 000:904.431 - 0.064ms returns 0
T5EF0 000:904.444 JLINK_WriteReg(R5, 0x00000000)
T5EF0 000:904.451 - 0.007ms returns 0
T5EF0 000:904.459 JLINK_WriteReg(R6, 0x00000000)
T5EF0 000:904.466 - 0.006ms returns 0
T5EF0 000:904.474 JLINK_WriteReg(R7, 0x00000000)
T5EF0 000:904.481 - 0.006ms returns 0
T5EF0 000:904.489 JLINK_WriteReg(R8, 0x00000000)
T5EF0 000:904.495 - 0.007ms returns 0
T5EF0 000:904.503 JLINK_WriteReg(R9, 0x20000180)
T5EF0 000:904.511 - 0.007ms returns 0
T5EF0 000:904.519 JLINK_WriteReg(R10, 0x00000000)
T5EF0 000:904.526 - 0.007ms returns 0
T5EF0 000:904.533 JLINK_WriteReg(R11, 0x00000000)
T5EF0 000:904.540 - 0.006ms returns 0
T5EF0 000:904.549 JLINK_WriteReg(R12, 0x00000000)
T5EF0 000:904.556 - 0.006ms returns 0
T5EF0 000:904.564 JLINK_WriteReg(R13 (SP), 0x20001000)
T5EF0 000:904.571 - 0.008ms returns 0
T5EF0 000:904.579 JLINK_WriteReg(R14, 0x20000001)
T5EF0 000:904.586 - 0.007ms returns 0
T5EF0 000:904.595 JLINK_WriteReg(R15 (PC), 0x2000010C)
T5EF0 000:904.602 - 0.007ms returns 0
T5EF0 000:904.610 JLINK_WriteReg(XPSR, 0x01000000)
T5EF0 000:904.617 - 0.007ms returns 0
T5EF0 000:904.625 JLINK_WriteReg(MSP, 0x20001000)
T5EF0 000:904.632 - 0.007ms returns 0
T5EF0 000:904.640 JLINK_WriteReg(PSP, 0x20001000)
T5EF0 000:904.647 - 0.007ms returns 0
T5EF0 000:904.655 JLINK_WriteReg(CFBP, 0x00000000)
T5EF0 000:904.662 - 0.007ms returns 0
T5EF0 000:904.671 JLINK_SetBPEx(Addr = 0x20000000, Type = 0xFFFFFFF2)
T5EF0 000:904.679 - 0.009ms returns 0x00000006
T5EF0 000:904.688 JLINK_Go()
T5EF0 000:904.705   CPU_ReadMem(4 bytes @ 0xE0001000)
T5EF0 000:908.725 - 4.037ms
T5EF0 000:908.739 JLINK_IsHalted()
T5EF0 000:909.313 - 0.573ms returns FALSE
T5EF0 000:909.326 JLINK_HasError()
T5EF0 000:913.407 JLINK_IsHalted()
T5EF0 000:916.880   CPU_ReadMem(2 bytes @ 0x20000000)
T5EF0 000:917.537 - 4.129ms returns TRUE
T5EF0 000:917.558 JLINK_ReadReg(R15 (PC))
T5EF0 000:917.569 - 0.010ms returns 0x20000000
T5EF0 000:917.578 JLINK_ClrBPEx(BPHandle = 0x00000006)
T5EF0 000:917.586 - 0.007ms returns 0x00
T5EF0 000:917.595 JLINK_ReadReg(R0)
T5EF0 000:917.602 - 0.007ms returns 0x00000000
T5EF0 000:918.462 JLINK_WriteMem(0x20000184, 0x27C Bytes, ...)
T5EF0 000:918.474   Data:  FC D5 80 B2 70 47 70 B5 0C 46 05 46 01 2A 05 D0 ...
T5EF0 000:918.488   CPU_WriteMem(636 bytes @ 0x20000184)
T5EF0 000:926.432 - 7.969ms returns 0x27C
T5EF0 000:926.451 JLINK_WriteMem(0x20000400, 0x184 Bytes, ...)
T5EF0 000:926.457   Data:  30 B4 00 21 00 F1 24 04 08 E0 02 F0 07 05 D2 08 ...
T5EF0 000:926.471   CPU_WriteMem(388 bytes @ 0x20000400)
T5EF0 000:931.917 - 5.466ms returns 0x184
T5EF0 000:931.951 JLINK_HasError()
T5EF0 000:931.977 JLINK_WriteReg(R0, 0x08000400)
T5EF0 000:931.999 - 0.021ms returns 0
T5EF0 000:932.017 JLINK_WriteReg(R1, 0x00000400)
T5EF0 000:932.029 - 0.011ms returns 0
T5EF0 000:932.039 JLINK_WriteReg(R2, 0x20000184)
T5EF0 000:932.047 - 0.008ms returns 0
T5EF0 000:932.053 JLINK_WriteReg(R3, 0x00000000)
T5EF0 000:932.058 - 0.004ms returns 0
T5EF0 000:932.065 JLINK_WriteReg(R4, 0x00000000)
T5EF0 000:932.070 - 0.004ms returns 0
T5EF0 000:932.075 JLINK_WriteReg(R5, 0x00000000)
T5EF0 000:932.080 - 0.004ms returns 0
T5EF0 000:932.087 JLINK_WriteReg(R6, 0x00000000)
T5EF0 000:932.092 - 0.004ms returns 0
T5EF0 000:932.097 JLINK_WriteReg(R7, 0x00000000)
T5EF0 000:932.102 - 0.004ms returns 0
T5EF0 000:932.108 JLINK_WriteReg(R8, 0x00000000)
T5EF0 000:932.113 - 0.004ms returns 0
T5EF0 000:932.118 JLINK_WriteReg(R9, 0x20000180)
T5EF0 000:932.123 - 0.004ms returns 0
T5EF0 000:932.129 JLINK_WriteReg(R10, 0x00000000)
T5EF0 000:932.134 - 0.004ms returns 0
T5EF0 000:932.139 JLINK_WriteReg(R11, 0x00000000)
T5EF0 000:932.144 - 0.004ms returns 0
T5EF0 000:932.154 JLINK_WriteReg(R12, 0x00000000)
T5EF0 000:932.158 - 0.005ms returns 0
T5EF0 000:932.164 JLINK_WriteReg(R13 (SP), 0x20001000)
T5EF0 000:932.169 - 0.005ms returns 0
T5EF0 000:932.176 JLINK_WriteReg(R14, 0x20000001)
T5EF0 000:932.181 - 0.004ms returns 0
T5EF0 000:932.187 JLINK_WriteReg(R15 (PC), 0x2000010C)
T5EF0 000:932.192 - 0.004ms returns 0
T5EF0 000:932.210 JLINK_WriteReg(XPSR, 0x01000000)
T5EF0 000:932.214 - 0.005ms returns 0
T5EF0 000:932.220 JLINK_WriteReg(MSP, 0x20001000)
T5EF0 000:932.224 - 0.004ms returns 0
T5EF0 000:932.232 JLINK_WriteReg(PSP, 0x20001000)
T5EF0 000:932.236 - 0.004ms returns 0
T5EF0 000:932.242 JLINK_WriteReg(CFBP, 0x00000000)
T5EF0 000:932.246 - 0.004ms returns 0
T5EF0 000:932.256 JLINK_SetBPEx(Addr = 0x20000000, Type = 0xFFFFFFF2)
T5EF0 000:932.262 - 0.006ms returns 0x00000007
T5EF0 000:932.267 JLINK_Go()
T5EF0 000:932.279   CPU_ReadMem(4 bytes @ 0xE0001000)
T5EF0 000:936.318 - 4.049ms
T5EF0 000:936.349 JLINK_IsHalted()
T5EF0 000:936.980 - 0.630ms returns FALSE
T5EF0 000:936.998 JLINK_HasError()
T5EF0 000:938.232 JLINK_IsHalted()
T5EF0 000:938.862 - 0.629ms returns FALSE
T5EF0 000:938.874 JLINK_HasError()
T5EF0 000:940.482 JLINK_IsHalted()
T5EF0 000:944.005   CPU_ReadMem(2 bytes @ 0x20000000)
T5EF0 000:944.646 - 4.163ms returns TRUE
T5EF0 000:944.671 JLINK_ReadReg(R15 (PC))
T5EF0 000:944.680 - 0.008ms returns 0x20000000
T5EF0 000:944.685 JLINK_ClrBPEx(BPHandle = 0x00000007)
T5EF0 000:944.690 - 0.005ms returns 0x00
T5EF0 000:944.696 JLINK_ReadReg(R0)
T5EF0 000:944.701 - 0.004ms returns 0x00000000
T5EF0 000:948.565 JLINK_WriteMem(0x20000184, 0x27C Bytes, ...)
T5EF0 000:948.583   Data:  20 46 04 EB 87 02 91 61 E1 68 88 47 01 2F 05 46 ...
T5EF0 000:948.607   CPU_WriteMem(636 bytes @ 0x20000184)
T5EF0 000:956.659 - 8.092ms returns 0x27C
T5EF0 000:956.695 JLINK_WriteMem(0x20000400, 0x184 Bytes, ...)
T5EF0 000:956.701   Data:  80 00 4F F4 40 01 01 EA 50 00 4F EA 90 59 B9 F1 ...
T5EF0 000:956.725   CPU_WriteMem(388 bytes @ 0x20000400)
T5EF0 000:961.909 - 5.214ms returns 0x184
T5EF0 000:961.956 JLINK_HasError()
T5EF0 000:962.017 JLINK_WriteReg(R0, 0x08000800)
T5EF0 000:962.037 - 0.020ms returns 0
T5EF0 000:962.044 JLINK_WriteReg(R1, 0x00000400)
T5EF0 000:962.051 - 0.006ms returns 0
T5EF0 000:962.057 JLINK_WriteReg(R2, 0x20000184)
T5EF0 000:962.063 - 0.005ms returns 0
T5EF0 000:962.069 JLINK_WriteReg(R3, 0x00000000)
T5EF0 000:962.074 - 0.005ms returns 0
T5EF0 000:962.080 JLINK_WriteReg(R4, 0x00000000)
T5EF0 000:962.086 - 0.006ms returns 0
T5EF0 000:962.092 JLINK_WriteReg(R5, 0x00000000)
T5EF0 000:962.097 - 0.005ms returns 0
T5EF0 000:962.103 JLINK_WriteReg(R6, 0x00000000)
T5EF0 000:962.109 - 0.005ms returns 0
T5EF0 000:962.115 JLINK_WriteReg(R7, 0x00000000)
T5EF0 000:962.120 - 0.005ms returns 0
T5EF0 000:962.126 JLINK_WriteReg(R8, 0x00000000)
T5EF0 000:962.131 - 0.005ms returns 0
T5EF0 000:962.137 JLINK_WriteReg(R9, 0x20000180)
T5EF0 000:962.143 - 0.005ms returns 0
T5EF0 000:962.149 JLINK_WriteReg(R10, 0x00000000)
T5EF0 000:962.154 - 0.005ms returns 0
T5EF0 000:962.160 JLINK_WriteReg(R11, 0x00000000)
T5EF0 000:962.166 - 0.005ms returns 0
T5EF0 000:962.172 JLINK_WriteReg(R12, 0x00000000)
T5EF0 000:962.177 - 0.005ms returns 0
T5EF0 000:962.183 JLINK_WriteReg(R13 (SP), 0x20001000)
T5EF0 000:962.189 - 0.006ms returns 0
T5EF0 000:962.195 JLINK_WriteReg(R14, 0x20000001)
T5EF0 000:962.201 - 0.006ms returns 0
T5EF0 000:962.207 JLINK_WriteReg(R15 (PC), 0x2000010C)
T5EF0 000:962.213 - 0.005ms returns 0
T5EF0 000:962.219 JLINK_WriteReg(XPSR, 0x01000000)
T5EF0 000:962.224 - 0.005ms returns 0
T5EF0 000:962.230 JLINK_WriteReg(MSP, 0x20001000)
T5EF0 000:962.236 - 0.005ms returns 0
T5EF0 000:962.242 JLINK_WriteReg(PSP, 0x20001000)
T5EF0 000:962.247 - 0.005ms returns 0
T5EF0 000:962.253 JLINK_WriteReg(CFBP, 0x00000000)
T5EF0 000:962.259 - 0.005ms returns 0
T5EF0 000:962.266 JLINK_SetBPEx(Addr = 0x20000000, Type = 0xFFFFFFF2)
T5EF0 000:962.273 - 0.007ms returns 0x00000008
T5EF0 000:962.279 JLINK_Go()
T5EF0 000:962.298   CPU_ReadMem(4 bytes @ 0xE0001000)
T5EF0 000:966.456 - 4.175ms
T5EF0 000:966.497 JLINK_IsHalted()
T5EF0 000:967.229 - 0.729ms returns FALSE
T5EF0 000:967.263 JLINK_HasError()
T5EF0 000:987.200 JLINK_IsHalted()
T5EF0 000:990.897   CPU_ReadMem(2 bytes @ 0x20000000)
T5EF0 000:991.546 - 4.346ms returns TRUE
T5EF0 000:991.563 JLINK_ReadReg(R15 (PC))
T5EF0 000:991.575 - 0.012ms returns 0x20000000
T5EF0 000:991.583 JLINK_ClrBPEx(BPHandle = 0x00000008)
T5EF0 000:991.589 - 0.005ms returns 0x00
T5EF0 000:991.594 JLINK_ReadReg(R0)
T5EF0 000:991.598 - 0.004ms returns 0x00000000
T5EF0 000:993.099 JLINK_WriteMem(0x20000184, 0x27C Bytes, ...)
T5EF0 000:993.118   Data:  22 F0 07 01 91 B0 D1 E9 00 01 CD E9 0A 01 01 F0 ...
T5EF0 000:993.141   CPU_WriteMem(636 bytes @ 0x20000184)
T5EF0 001:001.095 - 7.994ms returns 0x27C
T5EF0 001:001.126 JLINK_WriteMem(0x20000400, 0x184 Bytes, ...)
T5EF0 001:001.135   Data:  01 F0 26 F9 02 46 F8 0F 01 D0 2D 23 07 E0 20 68 ...
T5EF0 001:001.158   CPU_WriteMem(388 bytes @ 0x20000400)
T5EF0 001:006.396 - 5.268ms returns 0x184
T5EF0 001:006.450 JLINK_HasError()
T5EF0 001:006.462 JLINK_WriteReg(R0, 0x08000C00)
T5EF0 001:006.478 - 0.017ms returns 0
T5EF0 001:006.484 JLINK_WriteReg(R1, 0x00000400)
T5EF0 001:006.490 - 0.005ms returns 0
T5EF0 001:006.496 JLINK_WriteReg(R2, 0x20000184)
T5EF0 001:006.502 - 0.005ms returns 0
T5EF0 001:006.509 JLINK_WriteReg(R3, 0x00000000)
T5EF0 001:006.514 - 0.005ms returns 0
T5EF0 001:006.520 JLINK_WriteReg(R4, 0x00000000)
T5EF0 001:006.525 - 0.005ms returns 0
T5EF0 001:006.531 JLINK_WriteReg(R5, 0x00000000)
T5EF0 001:006.537 - 0.005ms returns 0
T5EF0 001:006.543 JLINK_WriteReg(R6, 0x00000000)
T5EF0 001:006.548 - 0.005ms returns 0
T5EF0 001:006.554 JLINK_WriteReg(R7, 0x00000000)
T5EF0 001:006.559 - 0.005ms returns 0
T5EF0 001:006.565 JLINK_WriteReg(R8, 0x00000000)
T5EF0 001:006.570 - 0.005ms returns 0
T5EF0 001:006.576 JLINK_WriteReg(R9, 0x20000180)
T5EF0 001:006.581 - 0.005ms returns 0
T5EF0 001:006.587 JLINK_WriteReg(R10, 0x00000000)
T5EF0 001:006.593 - 0.005ms returns 0
T5EF0 001:006.599 JLINK_WriteReg(R11, 0x00000000)
T5EF0 001:006.604 - 0.005ms returns 0
T5EF0 001:006.611 JLINK_WriteReg(R12, 0x00000000)
T5EF0 001:006.616 - 0.005ms returns 0
T5EF0 001:006.622 JLINK_WriteReg(R13 (SP), 0x20001000)
T5EF0 001:006.628 - 0.005ms returns 0
T5EF0 001:006.634 JLINK_WriteReg(R14, 0x20000001)
T5EF0 001:006.639 - 0.005ms returns 0
T5EF0 001:006.646 JLINK_WriteReg(R15 (PC), 0x2000010C)
T5EF0 001:006.651 - 0.005ms returns 0
T5EF0 001:006.657 JLINK_WriteReg(XPSR, 0x01000000)
T5EF0 001:006.662 - 0.005ms returns 0
T5EF0 001:006.668 JLINK_WriteReg(MSP, 0x20001000)
T5EF0 001:006.673 - 0.005ms returns 0
T5EF0 001:006.680 JLINK_WriteReg(PSP, 0x20001000)
T5EF0 001:006.686 - 0.005ms returns 0
T5EF0 001:006.691 JLINK_WriteReg(CFBP, 0x00000000)
T5EF0 001:006.697 - 0.005ms returns 0
T5EF0 001:006.704 JLINK_SetBPEx(Addr = 0x20000000, Type = 0xFFFFFFF2)
T5EF0 001:006.712 - 0.008ms returns 0x00000009
T5EF0 001:006.719 JLINK_Go()
T5EF0 001:006.743   CPU_ReadMem(4 bytes @ 0xE0001000)
T5EF0 001:010.797 - 4.077ms
T5EF0 001:010.825 JLINK_IsHalted()
T5EF0 001:011.402 - 0.577ms returns FALSE
T5EF0 001:011.429 JLINK_HasError()
T5EF0 001:015.182 JLINK_IsHalted()
T5EF0 001:018.769   CPU_ReadMem(2 bytes @ 0x20000000)
T5EF0 001:019.397 - 4.215ms returns TRUE
T5EF0 001:019.419 JLINK_ReadReg(R15 (PC))
T5EF0 001:019.430 - 0.011ms returns 0x20000000
T5EF0 001:019.439 JLINK_ClrBPEx(BPHandle = 0x00000009)
T5EF0 001:019.447 - 0.007ms returns 0x00
T5EF0 001:019.456 JLINK_ReadReg(R0)
T5EF0 001:019.463 - 0.007ms returns 0x00000000
T5EF0 001:020.349 JLINK_WriteMem(0x20000184, 0x27C Bytes, ...)
T5EF0 001:020.366   Data:  01 08 01 DA 00 2D F0 DC 21 68 8B 06 02 D5 16 E0 ...
T5EF0 001:020.387   CPU_WriteMem(636 bytes @ 0x20000184)
T5EF0 001:028.335 - 7.986ms returns 0x27C
T5EF0 001:028.361 JLINK_WriteMem(0x20000400, 0x184 Bytes, ...)
T5EF0 001:028.367   Data:  15 A5 00 E0 15 A5 21 F0 10 00 20 60 A0 69 C0 1E ...
T5EF0 001:028.385   CPU_WriteMem(388 bytes @ 0x20000400)
T5EF0 001:033.599 - 5.237ms returns 0x184
T5EF0 001:033.629 JLINK_HasError()
T5EF0 001:033.637 JLINK_WriteReg(R0, 0x08001000)
T5EF0 001:033.646 - 0.008ms returns 0
T5EF0 001:033.651 JLINK_WriteReg(R1, 0x00000400)
T5EF0 001:033.655 - 0.004ms returns 0
T5EF0 001:033.660 JLINK_WriteReg(R2, 0x20000184)
T5EF0 001:033.664 - 0.004ms returns 0
T5EF0 001:033.673 JLINK_WriteReg(R3, 0x00000000)
T5EF0 001:033.679 - 0.006ms returns 0
T5EF0 001:033.684 JLINK_WriteReg(R4, 0x00000000)
T5EF0 001:033.688 - 0.004ms returns 0
T5EF0 001:033.692 JLINK_WriteReg(R5, 0x00000000)
T5EF0 001:033.697 - 0.004ms returns 0
T5EF0 001:033.701 JLINK_WriteReg(R6, 0x00000000)
T5EF0 001:033.705 - 0.004ms returns 0
T5EF0 001:033.710 JLINK_WriteReg(R7, 0x00000000)
T5EF0 001:033.714 - 0.004ms returns 0
T5EF0 001:033.719 JLINK_WriteReg(R8, 0x00000000)
T5EF0 001:033.723 - 0.004ms returns 0
T5EF0 001:033.728 JLINK_WriteReg(R9, 0x20000180)
T5EF0 001:033.732 - 0.004ms returns 0
T5EF0 001:033.737 JLINK_WriteReg(R10, 0x00000000)
T5EF0 001:033.741 - 0.004ms returns 0
T5EF0 001:033.746 JLINK_WriteReg(R11, 0x00000000)
T5EF0 001:033.750 - 0.004ms returns 0
T5EF0 001:033.755 JLINK_WriteReg(R12, 0x00000000)
T5EF0 001:033.759 - 0.004ms returns 0
T5EF0 001:033.764 JLINK_WriteReg(R13 (SP), 0x20001000)
T5EF0 001:033.768 - 0.004ms returns 0
T5EF0 001:033.773 JLINK_WriteReg(R14, 0x20000001)
T5EF0 001:033.777 - 0.004ms returns 0
T5EF0 001:033.782 JLINK_WriteReg(R15 (PC), 0x2000010C)
T5EF0 001:033.786 - 0.004ms returns 0
T5EF0 001:033.791 JLINK_WriteReg(XPSR, 0x01000000)
T5EF0 001:033.795 - 0.004ms returns 0
T5EF0 001:033.800 JLINK_WriteReg(MSP, 0x20001000)
T5EF0 001:033.804 - 0.004ms returns 0
T5EF0 001:033.809 JLINK_WriteReg(PSP, 0x20001000)
T5EF0 001:033.813 - 0.004ms returns 0
T5EF0 001:033.818 JLINK_WriteReg(CFBP, 0x00000000)
T5EF0 001:033.822 - 0.004ms returns 0
T5EF0 001:033.827 JLINK_SetBPEx(Addr = 0x20000000, Type = 0xFFFFFFF2)
T5EF0 001:033.833 - 0.006ms returns 0x0000000A
T5EF0 001:033.838 JLINK_Go()
T5EF0 001:033.852   CPU_ReadMem(4 bytes @ 0xE0001000)
T5EF0 001:037.852 - 4.013ms
T5EF0 001:037.884 JLINK_IsHalted()
T5EF0 001:038.494 - 0.609ms returns FALSE
T5EF0 001:038.515 JLINK_HasError()
T5EF0 001:040.651 JLINK_IsHalted()
T5EF0 001:041.277 - 0.626ms returns FALSE
T5EF0 001:041.288 JLINK_HasError()
T5EF0 001:042.888 JLINK_IsHalted()
T5EF0 001:046.387   CPU_ReadMem(2 bytes @ 0x20000000)
T5EF0 001:047.008 - 4.118ms returns TRUE
T5EF0 001:047.027 JLINK_ReadReg(R15 (PC))
T5EF0 001:047.036 - 0.009ms returns 0x20000000
T5EF0 001:047.043 JLINK_ClrBPEx(BPHandle = 0x0000000A)
T5EF0 001:047.049 - 0.006ms returns 0x00
T5EF0 001:047.055 JLINK_ReadReg(R0)
T5EF0 001:047.061 - 0.005ms returns 0x00000000
T5EF0 001:048.323 JLINK_WriteMem(0x20000184, 0x27C Bytes, ...)
T5EF0 001:048.341   Data:  9A 42 15 D1 A2 EB 0C 03 93 43 13 EA CC 13 0B D1 ...
T5EF0 001:048.361   CPU_WriteMem(636 bytes @ 0x20000184)
T5EF0 001:056.341 - 8.017ms returns 0x27C
T5EF0 001:056.372 JLINK_WriteMem(0x20000400, 0x184 Bytes, ...)
T5EF0 001:056.381   Data:  0B F7 D2 1B 03 FB 0C F7 61 EB 07 01 0C FB 0E F7 ...
T5EF0 001:056.405   CPU_WriteMem(388 bytes @ 0x20000400)
T5EF0 001:061.636 - 5.264ms returns 0x184
T5EF0 001:061.653 JLINK_HasError()
T5EF0 001:061.660 JLINK_WriteReg(R0, 0x08001400)
T5EF0 001:061.668 - 0.007ms returns 0
T5EF0 001:061.673 JLINK_WriteReg(R1, 0x00000400)
T5EF0 001:061.677 - 0.004ms returns 0
T5EF0 001:061.682 JLINK_WriteReg(R2, 0x20000184)
T5EF0 001:061.686 - 0.004ms returns 0
T5EF0 001:061.691 JLINK_WriteReg(R3, 0x00000000)
T5EF0 001:061.695 - 0.004ms returns 0
T5EF0 001:061.699 JLINK_WriteReg(R4, 0x00000000)
T5EF0 001:061.703 - 0.004ms returns 0
T5EF0 001:061.708 JLINK_WriteReg(R5, 0x00000000)
T5EF0 001:061.712 - 0.004ms returns 0
T5EF0 001:061.717 JLINK_WriteReg(R6, 0x00000000)
T5EF0 001:061.721 - 0.004ms returns 0
T5EF0 001:061.725 JLINK_WriteReg(R7, 0x00000000)
T5EF0 001:061.729 - 0.004ms returns 0
T5EF0 001:061.734 JLINK_WriteReg(R8, 0x00000000)
T5EF0 001:061.738 - 0.004ms returns 0
T5EF0 001:061.743 JLINK_WriteReg(R9, 0x20000180)
T5EF0 001:061.747 - 0.004ms returns 0
T5EF0 001:061.751 JLINK_WriteReg(R10, 0x00000000)
T5EF0 001:061.756 - 0.004ms returns 0
T5EF0 001:061.760 JLINK_WriteReg(R11, 0x00000000)
T5EF0 001:061.764 - 0.004ms returns 0
T5EF0 001:061.769 JLINK_WriteReg(R12, 0x00000000)
T5EF0 001:061.773 - 0.004ms returns 0
T5EF0 001:061.783 JLINK_WriteReg(R13 (SP), 0x20001000)
T5EF0 001:061.790 - 0.007ms returns 0
T5EF0 001:061.794 JLINK_WriteReg(R14, 0x20000001)
T5EF0 001:061.798 - 0.004ms returns 0
T5EF0 001:061.803 JLINK_WriteReg(R15 (PC), 0x2000010C)
T5EF0 001:061.807 - 0.004ms returns 0
T5EF0 001:061.812 JLINK_WriteReg(XPSR, 0x01000000)
T5EF0 001:061.816 - 0.004ms returns 0
T5EF0 001:061.821 JLINK_WriteReg(MSP, 0x20001000)
T5EF0 001:061.825 - 0.004ms returns 0
T5EF0 001:061.830 JLINK_WriteReg(PSP, 0x20001000)
T5EF0 001:061.834 - 0.004ms returns 0
T5EF0 001:061.838 JLINK_WriteReg(CFBP, 0x00000000)
T5EF0 001:061.842 - 0.004ms returns 0
T5EF0 001:061.848 JLINK_SetBPEx(Addr = 0x20000000, Type = 0xFFFFFFF2)
T5EF0 001:061.853 - 0.005ms returns 0x0000000B
T5EF0 001:061.858 JLINK_Go()
T5EF0 001:061.872   CPU_ReadMem(4 bytes @ 0xE0001000)
T5EF0 001:065.960 - 4.102ms
T5EF0 001:065.997 JLINK_IsHalted()
T5EF0 001:066.653 - 0.654ms returns FALSE
T5EF0 001:066.682 JLINK_HasError()
T5EF0 001:071.614 JLINK_IsHalted()
T5EF0 001:075.097   CPU_ReadMem(2 bytes @ 0x20000000)
T5EF0 001:075.741 - 4.126ms returns TRUE
T5EF0 001:075.753 JLINK_ReadReg(R15 (PC))
T5EF0 001:075.761 - 0.008ms returns 0x20000000
T5EF0 001:075.768 JLINK_ClrBPEx(BPHandle = 0x0000000B)
T5EF0 001:075.774 - 0.005ms returns 0x00
T5EF0 001:075.780 JLINK_ReadReg(R0)
T5EF0 001:075.785 - 0.005ms returns 0x00000000
T5EF0 001:076.532 JLINK_WriteMem(0x20000184, 0x27C Bytes, ...)
T5EF0 001:076.542   Data:  A3 F1 01 03 70 47 80 80 7F 7E 7D 7C 7B 7A 79 78 ...
T5EF0 001:076.555   CPU_WriteMem(636 bytes @ 0x20000184)
T5EF0 001:084.503 - 7.971ms returns 0x27C
T5EF0 001:084.526 JLINK_WriteMem(0x20000400, 0x184 Bytes, ...)
T5EF0 001:084.531   Data:  4E EA 8E 0E 27 EA 04 45 4F EA 1C 47 04 FB 07 62 ...
T5EF0 001:084.545   CPU_WriteMem(388 bytes @ 0x20000400)
T5EF0 001:089.713 - 5.186ms returns 0x184
T5EF0 001:089.730 JLINK_HasError()
